<Qucs Dataset 25.2.0>
<indep time 216>
5.025130000000e-05
5.177243631105e-05
5.481470893315e-05
6.089925417735e-05
6.878043015280e-05
8.454278210370e-05
1.160674860055e-04
1.791168938091e-04
3.052157094164e-04
5.281493983593e-04
9.200507281388e-04
1.703853387698e-03
3.271458706816e-03
5.025130000000e-03
5.338651063824e-03
5.965693191471e-03
7.219777446765e-03
9.727945957354e-03
1.474428297853e-02
1.976941297853e-02
2.479454297853e-02
2.981967297853e-02
3.484480297853e-02
3.986993297853e-02
4.489506297853e-02
4.992019297853e-02
5.494532297853e-02
5.997045297853e-02
6.499558297853e-02
7.002071297853e-02
7.504584297853e-02
8.007097297853e-02
8.509610297853e-02
9.012123297853e-02
9.514636297853e-02
1.001714929785e-01
1.051966229785e-01
1.102217529785e-01
1.152468829785e-01
1.202720129785e-01
1.252971429785e-01
1.303222729785e-01
1.353474029785e-01
1.403725329785e-01
1.453976629785e-01
1.504227929785e-01
1.554479229785e-01
1.604730529785e-01
1.654981829785e-01
1.705233129785e-01
1.755484429785e-01
1.805735729785e-01
1.855987029785e-01
1.906238329785e-01
1.956489629785e-01
2.006740929785e-01
2.056992229785e-01
2.107243529785e-01
2.157494829785e-01
2.207746129785e-01
2.257997429785e-01
2.308248729785e-01
2.358500029785e-01
2.408751329785e-01
2.459002629785e-01
2.509253929785e-01
2.559505229785e-01
2.609756529785e-01
2.660007829785e-01
2.710259129785e-01
2.760510429785e-01
2.810761729785e-01
2.861013029785e-01
2.911264329785e-01
2.961515629785e-01
3.011766929785e-01
3.062018229785e-01
3.112269529785e-01
3.162520829785e-01
3.212772129785e-01
3.263023429785e-01
3.313274729785e-01
3.363526029785e-01
3.413777329785e-01
3.464028629785e-01
3.514279929785e-01
3.564531229785e-01
3.614782529785e-01
3.665033829785e-01
3.715285129785e-01
3.765536429785e-01
3.815787729785e-01
3.866039029785e-01
3.916290329785e-01
3.966541629785e-01
4.016792929785e-01
4.067044229785e-01
4.117295529785e-01
4.167546829785e-01
4.217798129785e-01
4.268049429785e-01
4.318300729785e-01
4.368552029785e-01
4.418803329785e-01
4.469054629785e-01
4.519305929785e-01
4.569557229785e-01
4.619808529785e-01
4.670059829785e-01
4.720311129785e-01
4.770562429785e-01
4.820813729785e-01
4.871065029785e-01
4.921316329785e-01
4.971567629785e-01
5.021818929785e-01
5.072070229785e-01
5.122321529785e-01
5.172572829785e-01
5.222824129785e-01
5.273075429785e-01
5.323326729785e-01
5.373578029785e-01
5.423829329785e-01
5.474080629785e-01
5.524331929785e-01
5.574583229785e-01
5.624834529785e-01
5.675085829785e-01
5.725337129785e-01
5.775588429785e-01
5.825839729785e-01
5.876091029785e-01
5.926342329785e-01
5.976593629785e-01
6.026844929785e-01
6.077096229785e-01
6.127347529785e-01
6.177598829785e-01
6.227850129785e-01
6.278101429785e-01
6.328352729785e-01
6.378604029785e-01
6.428855329785e-01
6.479106629785e-01
6.529357929785e-01
6.579609229785e-01
6.629860529785e-01
6.680111829785e-01
6.730363129785e-01
6.780614429785e-01
6.830865729785e-01
6.881117029785e-01
6.931368329785e-01
6.981619629785e-01
7.031870929785e-01
7.082122229785e-01
7.132373529785e-01
7.182624829785e-01
7.232876129785e-01
7.283127429785e-01
7.333378729785e-01
7.383630029785e-01
7.433881329785e-01
7.484132629785e-01
7.534383929785e-01
7.584635229785e-01
7.634886529785e-01
7.685137829785e-01
7.735389129785e-01
7.785640429785e-01
7.835891729785e-01
7.886143029785e-01
7.936394329785e-01
7.986645629785e-01
8.036896929785e-01
8.087148229785e-01
8.137399529785e-01
8.187650829785e-01
8.237902129785e-01
8.288153429785e-01
8.338404729785e-01
8.388656029785e-01
8.438907329785e-01
8.489158629785e-01
8.539409929785e-01
8.589661229785e-01
8.639912529785e-01
8.690163829785e-01
8.740415129785e-01
8.790666429785e-01
8.840917729785e-01
8.891169029785e-01
8.941420329785e-01
8.991671629785e-01
9.041922929785e-01
9.092174229785e-01
9.142425529785e-01
9.192676829785e-01
9.242928129785e-01
9.293179429785e-01
9.343430729785e-01
9.393682029785e-01
9.443933329785e-01
9.494184629785e-01
9.544435929785e-01
9.594687229785e-01
9.644938529785e-01
9.695189829785e-01
9.745441129785e-01
9.795692429785e-01
9.845943729785e-01
9.896195029785e-01
9.946446329785e-01
9.996697629785e-01
1.000000000000e+00
</indep>
<dep tran.i(pr1) time>
7.756491381187e-10
-4.836176328391e-11
1.770402052298e-10
-2.851785657593e-11
1.607290738306e-10
-2.788555617634e-11
1.443057186333e-10
-4.789520757070e-11
1.114952484304e-10
-8.167249342416e-11
8.771206926915e-11
-8.993385745616e-11
8.735772486144e-11
-8.941519601634e-11
-1.000065177935e-12
-8.595764678209e-13
-8.263828542483e-13
-6.010618894830e-13
-4.297742547470e-13
-2.251827335163e-13
-1.950948653779e-13
-7.736258034054e-14
-9.927597576402e-14
-1.425253156337e-14
-5.606252012002e-14
1.570207848455e-14
-3.440626586224e-14
3.138691590095e-14
-2.255630000853e-14
4.024872557065e-14
-1.564264680081e-14
4.552763688393e-14
-1.143394612959e-14
4.877680493107e-14
-8.809919763222e-15
5.080620107849e-14
-7.163101152006e-15
5.206872850356e-14
-6.142801664271e-15
5.283231817422e-14
-5.536162481471e-15
5.326277950791e-14
-5.208738325385e-15
5.346646748491e-14
-5.072892354784e-15
5.351357049486e-14
-5.070054105602e-15
5.345147013382e-14
-5.160292519423e-15
5.331273679433e-14
-5.315946343803e-15
5.312008885062e-14
-5.517604993495e-15
5.288956191904e-14
-5.751503175434e-15
5.263258534315e-14
-6.007793834835e-15
5.235737111864e-14
-6.279381885097e-15
5.206985905156e-14
-6.561124456347e-15
5.177436921381e-14
-6.849275372379e-15
5.147405775353e-14
-7.141095072866e-15
5.117123863364e-14
-7.434574196261e-15
5.086761269595e-14
-7.728236212450e-15
5.056443208056e-14
-8.020994931153e-15
5.026261851068e-14
-8.312052439754e-15
4.996285014103e-14
-8.600823726694e-15
4.966562406916e-14
-8.886882089128e-15
4.937130266616e-14
-9.169918870521e-15
4.908014762019e-14
-9.449713710532e-15
4.879234511895e-14
-9.726112450111e-15
4.850802450673e-14
-9.999010620343e-15
4.822727213310e-14
-1.026834102423e-14
4.795014164495e-14
-1.053406433576e-14
4.767666163152e-14
-1.079616195928e-14
4.740684132404e-14
-1.105463059793e-14
4.714067494184e-14
-1.130947823672e-14
4.687814511263e-14
-1.156072128977e-14
4.661922573966e-14
-1.180838257671e-14
4.636388438787e-14
-1.205249037613e-14
4.611208459177e-14
-1.229307752798e-14
4.586378739472e-14
-1.253018080969e-14
4.561895245234e-14
-1.276384011352e-14
4.537753848567e-14
-1.299409746045e-14
4.513950340009e-14
-1.322099614403e-14
4.490480435490e-14
-1.344458009684e-14
4.467339791065e-14
-1.366489352195e-14
4.444524026305e-14
-1.388198071340e-14
4.422028746698e-14
-1.409588589074e-14
4.399849559187e-14
-1.430665309684e-14
4.377982087630e-14
-1.451432611764e-14
4.356421980871e-14
-1.471894839678e-14
4.335164920687e-14
-1.492056298442e-14
4.314206627476e-14
-1.511921253043e-14
4.293542867555e-14
-1.531493914614e-14
4.273169446019e-14
-1.550778453262e-14
4.253082224390e-14
-1.569778987273e-14
4.233277112718e-14
-1.588499583245e-14
4.213750071301e-14
-1.606944254439e-14
4.194497112989e-14
-1.625116962185e-14
4.175514303256e-14
-1.643021615318e-14
4.156797761075e-14
-1.660662069030e-14
4.138343657032e-14
-1.678042125605e-14
4.120148215478e-14
-1.695165535616e-14
4.102207712517e-14
-1.712035996034e-14
4.084518477077e-14
-1.728657153325e-14
4.067076889347e-14
-1.745032601205e-14
4.049879380630e-14
-1.761165882560e-14
4.032922432629e-14
-1.777060490147e-14
4.016202578516e-14
-1.792719866828e-14
3.999716400539e-14
-1.808147405732e-14
3.983460529935e-14
-1.823346451287e-14
3.967431646580e-14
-1.838320299724e-14
3.951626478037e-14
-1.853072199325e-14
3.936041799515e-14
-1.867605351977e-14
3.920674432706e-14
-1.881922918247e-14
3.905521249682e-14
-1.896027995614e-14
3.890579153742e-14
-1.909923655869e-14
3.875845108473e-14
-1.923612918905e-14
3.861316115930e-14
-1.937098760846e-14
3.846989221091e-14
-1.950384114486e-14
3.832861512315e-14
-1.963471870955e-14
3.818930120305e-14
-1.976364878582e-14
3.805192216927e-14
-1.989065944681e-14
3.791645015076e-14
-2.001577835625e-14
3.778285768475e-14
-2.013903278493e-14
3.765111770610e-14
-2.026044960244e-14
3.752120354147e-14
-2.038005528972e-14
3.739308889989e-14
-2.049787594122e-14
3.726674787536e-14
-2.061393727736e-14
3.714215493466e-14
-2.072826464390e-14
3.701928491607e-14
-2.084088302019e-14
3.689811302301e-14
-2.095181702529e-14
3.677861481773e-14
-2.106109092079e-14
3.666076621407e-14
-2.116872861451e-14
3.654454347517e-14
-2.127475367488e-14
3.642992321223e-14
-2.137918932110e-14
3.633394393472e-14
</dep>
<dep tran.v(vled) time>
9.578824985791e-03
9.454700295594e-03
9.321209414496e-03
9.082040319889e-03
8.766130254677e-03
8.184938632983e-03
7.117043324894e-03
5.384704977142e-03
3.026005978794e-03
1.004463715759e-03
1.278393268186e-05
-8.269496365503e-05
-4.580347327937e-05
-5.147822008073e-05
-4.891570696712e-05
-4.270515439051e-05
-3.869941647999e-05
-3.039675767022e-05
-1.944201384922e-05
-1.223699257388e-05
-8.065225863039e-06
-5.110561371559e-06
-3.418741037532e-06
-2.077660970213e-06
-1.322296993464e-06
-6.432682099909e-07
-2.709221898545e-07
1.053055642648e-07
3.048783526358e-07
5.270775304035e-07
6.411100100090e-07
7.777999558533e-07
8.459456970409e-07
9.318990886853e-07
9.737348537442e-07
1.028069274113e-06
1.053976375570e-06
1.087885553931e-06
1.103717284834e-06
1.124080739971e-06
1.133313545035e-06
1.144518442692e-06
1.149310782560e-06
1.154234996632e-06
1.155977659261e-06
1.156550466937e-06
1.156167694024e-06
1.153704527891e-06
1.151826318497e-06
1.147236169365e-06
1.144300940137e-06
1.138218751783e-06
1.134536753093e-06
1.127409985596e-06
1.123203750785e-06
1.115350078524e-06
1.110780954480e-06
1.102427327638e-06
1.097613302963e-06
1.088922730307e-06
1.083950663347e-06
1.075040771011e-06
1.069974924011e-06
1.060930928616e-06
1.055819012378e-06
1.046702859378e-06
1.041580365334e-06
1.032437210112e-06
1.027330697209e-06
1.018193551638e-06
1.013122316641e-06
1.004015286624e-06
9.989940190230e-07
9.899347837514e-07
9.849741340756e-07
9.759756432205e-07
9.710833310902e-07
9.621550642236e-07
9.573365733903e-07
9.484854574465e-07
9.437445610047e-07
9.349756389451e-07
9.303148007039e-07
9.216317163631e-07
9.170524040003e-07
9.084577478763e-07
9.039606854754e-07
8.954562345231e-07
8.910416130196e-07
8.826284880782e-07
8.782961474797e-07
8.699749081899e-07
8.657244982254e-07
8.574951959204e-07
8.533263101481e-07
8.451885227992e-07
8.411008385484e-07
8.330537172040e-07
8.290468762021e-07
8.210891914329e-07
8.171630559660e-07
8.092933260934e-07
8.054477347890e-07
7.976643444418e-07
7.938990771748e-07
7.862004006298e-07
7.825151059737e-07
7.748995924183e-07
7.712937559515e-07
7.637599631802e-07
7.602329161247e-07
7.527795058839e-07
7.493304579019e-07
7.419561733403e-07
7.385842492640e-07
7.312878927273e-07
7.279921604004e-07
7.207725787422e-07
7.175520697224e-07
7.104081427672e-07
7.072618672092e-07
7.001925015806e-07
6.971194572725e-07
6.901235818301e-07
6.871227622243e-07
6.801993246462e-07
6.772697241973e-07
6.704176885958e-07
6.675583386529e-07
6.607766902397e-07
6.579865266785e-07
6.512742533721e-07
6.485523296316e-07
6.419084403933e-07
6.392537805853e-07
6.326772987129e-07
6.300889374970e-07
6.235788997485e-07
6.210558838625e-07
6.146113398090e-07
6.121527280068e-07
6.057727403439e-07
6.033776033455e-07
5.970612482390e-07
5.947286691153e-07
5.884750350188e-07
5.862041095864e-07
5.800122978490e-07
5.778021339109e-07
5.716712586021e-07
5.695209767795e-07
5.634501643483e-07
5.613588970046e-07
5.553472866369e-07
5.533141786022e-07
5.473609213653e-07
5.453851298870e-07
5.394893886302e-07
5.375700830012e-07
5.317310329537e-07
5.298673940359e-07
5.240842224188e-07
5.222754427434e-07
5.165473483838e-07
5.147926322337e-07
5.091188254209e-07
5.074173886050e-07
5.017970909970e-07
5.001481607131e-07
4.945806052461e-07
4.929834197069e-07
4.874678504863e-07
4.859217296941e-07
4.804574129484e-07
4.789614652691e-07
4.735476521799e-07
4.721012324712e-07
4.667372005364e-07
4.653395893641e-07
4.600246263760e-07
4.586751149961e-07
4.534085186154e-07
4.521064089874e-07
4.468874869013e-07
4.456320908861e-07
4.404601610272e-07
4.392508006607e-07
4.341251906100e-07
4.329611977999e-07
4.278812447450e-07
4.267619614249e-07
4.217270120741e-07
4.206517893503e-07
4.156612002118e-07
4.146293985704e-07
4.096825354470e-07
4.086935246921e-07
4.037897623897e-07
4.028429217132e-07
3.979816439719e-07
3.970763614307e-07
3.922569610721e-07
3.913926336327e-07
3.866145121451e-07
3.857905455724e-07
3.810531131142e-07
3.802689217274e-07
3.755715970758e-07
3.748266035758e-07
3.701688139030e-07
3.694624495099e-07
3.648436302027e-07
3.641753341941e-07
3.595949291006e-07
3.589641488829e-07
3.568301738688e-07
</dep>
